EC-Lab ASCII FILE
Nb header lines : 3                           
mode	time/s	freq/Hz	Re(Z)/Ohm	-Im(Z)/Ohm	|Z|/Ohm	Phase(Z)/deg	|Ewe|/V	|I|/A	Re(Zce)/Ohm	-Im(Zce)/Ohm	|Zce|/Ohm	Phase(Zce)/deg	|Ece|/V	|Ice|/A	Ewe/V	Ece dc/V	I/mA	Cs/µF	Cs-2/µF-2	Cp/µF	Cp-2/µF-2	Re(Y)/Ohm-1	Im(Y)/Ohm-1	|Y|/Ohm-1	Phase(Y)/deg	P/W	|Zwe-ce|/Ohm
2	3,086000004749745E+000	0,0000000E+000	0,0000000E+000	0,0000000E+000	0,0000000E+000	0,0000000E+000	0,0000000E+000	0,0000000E+000	0,0000000E+000	0,0000000E+000	0,0000000E+000	0,0000000E+000	0,0000000E+000	0,0000000E+000	-1,7478547E-004	0,0000000E+000	1,9334170E-006	0,0000000E+000	0,0000000E+000	0,0000000E+000	0,0000000E+000	0,0000000E+000	0,0000000E+000	0,0000000E+000	0,0000000E+000	3,3793321E-013	0
2	3,186000009499490E+000	0,0000000E+000	0,0000000E+000	0,0000000E+000	0,0000000E+000	0,0000000E+000	0,0000000E+000	0,0000000E+000	0,0000000E+000	0,0000000E+000	0,0000000E+000	0,0000000E+000	0,0000000E+000	0,0000000E+000	-2,3889428E-003	0,0000000E+000	5,2558444E-006	0,0000000E+000	0,0000000E+000	0,0000000E+000	0,0000000E+000	0,0000000E+000	0,0000000E+000	0,0000000E+000	0,0000000E+000	1,2555911E-011	0
2	3,286000014249235E+000	0,0000000E+000	0,0000000E+000	0,0000000E+000	0,0000000E+000	0,0000000E+000	0,0000000E+000	0,0000000E+000	0,0000000E+000	0,0000000E+000	0,0000000E+000	0,0000000E+000	0,0000000E+000	0,0000000E+000	-3,4578464E-003	0,0000000E+000	6,4785654E-006	0,0000000E+000	0,0000000E+000	0,0000000E+000	0,0000000E+000	0,0000000E+000	0,0000000E+000	0,0000000E+000	0,0000000E+000	2,2401884E-011	0
2	3,386000018998980E+000	0,0000000E+000	0,0000000E+000	0,0000000E+000	0,0000000E+000	0,0000000E+000	0,0000000E+000	0,0000000E+000	0,0000000E+000	0,0000000E+000	0,0000000E+000	0,0000000E+000	0,0000000E+000	0,0000000E+000	-3,7632473E-003	0,0000000E+000	3,3585191E-006	0,0000000E+000	0,0000000E+000	0,0000000E+000	0,0000000E+000	0,0000000E+000	0,0000000E+000	0,0000000E+000	0,0000000E+000	1,2638938E-011	0
2	3,486000023748725E+000	0,0000000E+000	0,0000000E+000	0,0000000E+000	0,0000000E+000	0,0000000E+000	0,0000000E+000	0,0000000E+000	0,0000000E+000	0,0000000E+000	0,0000000E+000	0,0000000E+000	0,0000000E+000	0,0000000E+000	-5,0612013E-003	0,0000000E+000	3,3500864E-006	0,0000000E+000	0,0000000E+000	0,0000000E+000	0,0000000E+000	0,0000000E+000	0,0000000E+000	0,0000000E+000	0,0000000E+000	1,6955461E-011	0
2	3,586000028498471E+000	0,0000000E+000	0,0000000E+000	0,0000000E+000	0,0000000E+000	0,0000000E+000	0,0000000E+000	0,0000000E+000	0,0000000E+000	0,0000000E+000	0,0000000E+000	0,0000000E+000	0,0000000E+000	0,0000000E+000	-3,0760949E-003	0,0000000E+000	1,7944504E-007	0,0000000E+000	0,0000000E+000	0,0000000E+000	0,0000000E+000	0,0000000E+000	0,0000000E+000	0,0000000E+000	0,0000000E+000	5,5198999E-013	0
2	3,686000033248216E+000	0,0000000E+000	0,0000000E+000	0,0000000E+000	0,0000000E+000	0,0000000E+000	0,0000000E+000	0,0000000E+000	0,0000000E+000	0,0000000E+000	0,0000000E+000	0,0000000E+000	0,0000000E+000	0,0000000E+000	-1,4727397E-003	0,0000000E+000	1,6129796E-006	0,0000000E+000	0,0000000E+000	0,0000000E+000	0,0000000E+000	0,0000000E+000	0,0000000E+000	0,0000000E+000	0,0000000E+000	2,3754993E-012	0
2	3,786000037997961E+000	0,0000000E+000	0,0000000E+000	0,0000000E+000	0,0000000E+000	0,0000000E+000	0,0000000E+000	0,0000000E+000	0,0000000E+000	0,0000000E+000	0,0000000E+000	0,0000000E+000	0,0000000E+000	0,0000000E+000	1,1995191E-003	0,0000000E+000	-9,4208485E-007	0,0000000E+000	0,0000000E+000	0,0000000E+000	0,0000000E+000	0,0000000E+000	0,0000000E+000	0,0000000E+000	0,0000000E+000	1,1300489E-012	0
2	3,886000042747706E+000	0,0000000E+000	0,0000000E+000	0,0000000E+000	0,0000000E+000	0,0000000E+000	0,0000000E+000	0,0000000E+000	0,0000000E+000	0,0000000E+000	0,0000000E+000	0,0000000E+000	0,0000000E+000	0,0000000E+000	2,8792247E-003	0,0000000E+000	7,1069610E-007	0,0000000E+000	0,0000000E+000	0,0000000E+000	0,0000000E+000	0,0000000E+000	0,0000000E+000	0,0000000E+000	0,0000000E+000	2,0462538E-012	0
0	6,136000156403000E+000	2,0031250E+004	3,7230324E+004	4,5223613E+003	3,7503984E+004	-6,9257789E+000	1,0206509E-002	2,7214466E-007	2,0447412E+003	-2,9532900E+003	3,5920591E+003	5,5302803E+001	9,6957257E-004	2,6992112E-007	7,8973034E-003	5,8025974E-001	5,7635834E-006	1,7568992E-003	3,2397116E+005	2,5545978E-005	1,5323392E+009	2,6469274E-005	3,2152184E-006	2,6663834E-005	6,9257789E+000	4,5516767E-011	0
0	7,037000179291000E+000	1,5670776E+004	3,7271613E+004	3,1416655E+003	3,7403785E+004	-4,8181353E+000	9,8842653E-003	2,6425843E-007	1,9134872E+003	-2,5324688E+003	3,1740874E+003	5,2925972E+001	8,2579633E-004	2,6016812E-007	7,6220068E-003	5,7994860E-001	9,8530709E-006	3,2327317E-003	9,5688703E+004	2,2806491E-005	1,9225740E+009	2,6640788E-005	2,2455815E-006	2,6735263E-005	4,8181353E+000	7,5100176E-011	0
0	7,957000255585000E+000	1,2293904E+004	3,4369594E+004	1,3790577E+003	3,4397250E+004	-2,2977235E+000	1,0312674E-002	2,9981101E-007	-3,1024768E+002	-3,6944351E+003	3,7074390E+003	9,4800270E+001	1,1054816E-003	2,9817932E-007	7,8146718E-003	5,7948941E-001	6,9383755E-006	9,3874549E-003	1,1347606E+004	1,5089168E-005	4,3920717E+009	2,9048717E-005	1,1655610E-006	2,9072091E-005	2,2977235E+000	5,4221128E-011	0
0	9,324999809265000E+000	9,6341660E+003	3,6854352E+004	-8,1527429E+002	3,6863367E+004	1,2672631E+000	1,0048078E-002	2,7257624E-007	-2,2808674E+001	-2,1981565E+003	2,1982749E+003	9,0594498E+001	5,8948062E-004	2,6815601E-007	7,6361173E-003	5,7893550E-001	4,4927756E-006	-2,0262931E-002	2,4355413E+003	-9,9110521E-006	1,0180298E+010	2,7120566E-005	-5,9994818E-007	2,7127202E-005	-1,2672631E+000	3,4307363E-011	0
0	1,105399990081800E+001	7,5334829E+003	3,1407072E+004	4,7812656E+003	3,1768926E+004	-8,6559811E+000	9,0151466E-003	2,8377247E-007	7,7532104E+002	-1,4766128E+003	1,6677854E+003	6,2297508E+001	4,5967239E-004	2,7561842E-007	7,3414906E-003	5,7855541E-001	1,0695058E-005	4,4185668E-003	5,1219711E+004	1,0008342E-004	9,9833376E+007	3,1118765E-005	4,7373755E-006	3,1477299E-005	8,6559811E+000	7,8517672E-011	0
0	1,321399974823000E+001	5,9113799E+003	3,8078383E+004	7,6040781E+003	3,8830211E+004	-1,1293151E+001	1,0482875E-002	2,6996699E-007	2,1412329E+003	-1,2857029E+003	2,4975808E+003	3,0982704E+001	6,6766818E-004	2,6732596E-007	7,2526513E-003	5,7730007E-001	9,5909299E-006	3,5406637E-003	7,9768359E+004	1,3578079E-004	5,4240456E+007	2,5254512E-005	5,0432100E-006	2,5753143E-005	1,1293151E+001	6,9559671E-011	0
0	1,487100028991700E+001	4,6205669E+003	3,6712434E+004	8,9175830E+003	3,7779969E+004	-1,3652933E+001	9,7004268E-003	2,5676113E-007	-2,3338802E+002	-2,1966350E+003	2,2089988E+003	9,6064804E+001	5,6478457E-004	2,5567445E-007	7,4502002E-003	5,7751137E-001	9,3925510E-006	3,8625817E-003	6,7026203E+004	2,1520325E-004	2,1592470E+007	2,5721127E-005	6,2477543E-006	2,6469053E-005	1,3652933E+001	6,9976386E-011	0
0	1,611400032043500E+001	3,6207959E+003	3,7348129E+004	8,3328457E+003	3,8266422E+004	-1,2577425E+001	9,5872190E-003	2,5053868E-007	-4,8584644E+002	-8,4532660E+002	9,7499939E+002	1,1988788E+002	2,3991498E-004	2,4606680E-007	7,5900387E-003	5,7642776E-001	4,7774756E-006	5,2750036E-003	3,5938051E+004	2,5013456E-004	1,5982790E+007	2,5505458E-005	5,6905951E-006	2,6132571E-005	1,2577425E+001	3,6261223E-011	0
0	1,756299972534200E+001	2,8345361E+003	3,4137500E+004	7,6626196E+003	3,4986922E+004	-1,2651117E+001	9,6457675E-003	2,7569638E-007	3,3125293E+002	-1,2714885E+003	1,3139298E+003	7,5397682E+001	3,6434794E-004	2,7729635E-007	7,6417094E-003	5,7618105E-001	5,0150070E-006	7,3275850E-003	1,8624229E+004	3,5148268E-004	8,0945395E+006	2,7888185E-005	6,2598770E-006	2,8582108E-005	1,2651117E+001	3,8323227E-011	0
0	1,839100074768100E+001	2,2228657E+003	4,4476902E+004	5,1770146E+003	4,4777184E+004	-6,6392283E+000	1,0338356E-002	2,3088447E-007	1,7102291E+003	1,2720745E+003	2,1314448E+003	-3,6642002E+001	5,0665659E-004	2,3770571E-007	7,3549114E-003	5,7604581E-001	1,0705310E-005	1,3830169E-002	5,2281133E+003	1,8487268E-004	2,9258666E+007	2,2183036E-005	2,5820573E-006	2,2332802E-005	6,6392283E+000	7,8736608E-011	0
0	1,921999931335400E+001	1,7427876E+003	3,4797238E+004	1,0540182E+004	3,6358535E+004	-1,6851709E+001	8,6342106E-003	2,3747410E-007	1,8416962E+003	-6,9683060E+001	1,8430139E+003	2,1668296E+000	4,4016493E-004	2,3882887E-007	7,6731555E-003	5,7506037E-001	5,9776221E-006	8,6641824E-003	1,3321246E+004	7,2813348E-004	1,8861576E+006	2,6322794E-005	7,9732490E-006	2,7503858E-005	1,6851709E+001	4,5867223E-011	0
0	2,108300018310500E+001	1,3636871E+003	3,8156852E+004	8,1366064E+003	3,9014738E+004	-1,2037516E+001	1,0054392E-002	2,5770754E-007	5,3496283E+002	1,7671053E+003	1,8463062E+003	-7,3157150E+001	4,7775416E-004	2,5876216E-007	7,7330838E-003	5,7470638E-001	5,0211602E-006	1,4343730E-002	4,8604424E+003	6,2386598E-004	2,5693153E+006	2,5067739E-005	5,3454701E-006	2,5631340E-005	1,2037516E+001	3,8829051E-011	0
0	2,356800079345700E+001	1,0689720E+003	3,8470289E+004	3,1791990E+003	3,8601430E+004	-4,7242098E+000	9,4464645E-003	2,4471800E-007	9,8707495E+002	1,1092770E+003	1,4848611E+003	-4,8336151E+001	3,6220293E-004	2,4393051E-007	6,8744230E-003	5,7397252E-001	1,2534524E-005	4,6831287E-002	4,5596115E+002	3,1766159E-004	9,9099300E+006	2,5817766E-005	2,1335900E-006	2,5905776E-005	4,7242098E+000	8,6167622E-011	0
0	2,543200111389200E+001	8,3633508E+002	4,3697406E+004	1,2894820E+004	4,5560285E+004	-1,6440989E+001	1,0415589E-002	2,2861113E-007	1,8779990E+003	-1,1433440E+002	1,8814762E+003	3,4839225E+000	4,3081903E-004	2,2897926E-007	7,1864226E-003	5,7327652E-001	1,2318994E-005	1,4757899E-002	4,5914614E+003	1,1821763E-003	7,1554263E+005	2,1051488E-005	6,2121576E-006	2,1948941E-005	1,6440989E+001	8,8529496E-011	0
0	2,688100051879900E+001	6,5604968E+002	5,0399227E+004	1,0997188E+004	5,1585078E+004	-1,2309093E+001	1,0737057E-002	2,0814269E-007	1,3699996E+003	-9,0797864E+002	1,6435706E+003	3,3534756E+001	3,4208878E-004	2,0813756E-007	7,1818000E-003	5,7302266E-001	1,1020962E-005	2,2059808E-002	2,0549277E+003	1,0025750E-003	9,9486975E+005	1,8939812E-005	4,1326962E-006	1,9385450E-005	1,2309093E+001	7,9150346E-011	0
0	2,937700080871600E+001	5,1319373E+002	4,6106199E+004	2,2595299E+004	5,1345195E+004	-2,6108124E+001	1,1276244E-002	2,1961635E-007	1,2045033E+003	-1,7470848E+003	2,1220588E+003	5,5416222E+001	4,6630501E-004	2,1974178E-007	7,4080173E-003	5,7202160E-001	8,4856811E-006	1,3725264E-002	5,3083384E+003	2,6580140E-003	1,4154205E+005	1,7488788E-005	8,5707434E-006	1,9476020E-005	2,6108124E+001	6,2862070E-011	0
0	3,061300086975100E+001	4,0270612E+002	4,3293738E+004	1,5724295E+004	4,6060844E+004	-1,9961031E+001	1,0014678E-002	2,1742282E-007	2,5261724E+003	-8,3887164E+002	2,6618137E+003	1,8369892E+001	5,7885668E-004	2,1746702E-007	7,5190198E-003	5,7109773E-001	8,2822689E-006	2,5133949E-002	1,5829913E+003	2,9291345E-003	1,1655244E+005	2,0406162E-005	7,4115214E-006	2,1710413E-005	1,9961031E+001	6,2274547E-011	0
0	3,144099998474100E+001	3,1550452E+002	4,9116465E+004	1,7997518E+004	5,2310016E+004	-2,0124115E+001	1,0650206E-002	2,0359785E-007	3,5939968E+000	2,9420076E+003	2,9420098E+003	-8,9930008E+001	5,9945422E-004	2,0375670E-007	7,7444543E-003	5,7137662E-001	6,2710856E-006	2,8028635E-002	1,2729054E+003	3,3178555E-003	9,0841656E+004	1,7949709E-005	6,5772283E-006	1,9116798E-005	2,0124115E+001	4,8566137E-011	0
0	3,308100128173800E+001	2,4729520E+002	5,3193570E+004	1,8027146E+004	5,6165238E+004	-1,8721371E+001	1,0254940E-002	1,8258518E-007	4,6993115E+002	2,2471538E+003	2,2957646E+003	-7,8188362E+001	4,1945785E-004	1,8270943E-007	8,6006168E-003	5,7128936E-001	-6,8154955E-006	3,5700761E-002	7,8459418E+002	3,6778687E-003	7,3927758E+004	1,6862576E-005	5,7146781E-006	1,7804607E-005	1,8721371E+001	5,8617465E-011	0
0	3,454499816894500E+001	1,9332990E+002	4,7872816E+004	2,4610498E+004	5,3828273E+004	-2,7206829E+001	1,0238389E-002	1,9020467E-007	1,6257894E+003	7,0923279E+002	1,7737538E+003	-2,3568708E+001	3,3709421E-004	1,9004567E-007	8,0926903E-003	5,7048768E-001	-8,7740619E-007	3,3450354E-002	8,9371399E+002	6,9923089E-003	2,0453084E+004	1,6522206E-005	8,4937501E-006	1,8577597E-005	2,7206829E+001	7,1005766E-012	0
0	3,700500106811500E+001	1,5140472E+002	5,4246555E+004	1,8557836E+004	5,7333078E+004	-1,8885902E+001	8,7277191E-003	1,5222834E-007	1,0469717E+003	2,7144192E+003	2,9093335E+003	-6,8908005E+001	4,4289956E-004	1,5223402E-007	7,5957431E-003	5,6998736E-001	4,4640583E-006	5,6643929E-002	3,1166873E+002	5,9346827E-003	2,8392590E+004	1,6502952E-005	5,6456875E-006	1,7441938E-005	1,8885902E+001	3,3907838E-011	0
0	3,763299942016600E+001	1,1867061E+002	5,0686277E+004	3,0156541E+004	5,8978941E+004	-3,0751148E+001	1,0030195E-002	1,7006401E-007	5,1669440E+002	4,3596550E+001	5,1853040E+002	-4,8229589E+000	8,8803332E-005	1,7125964E-007	7,9447059E-003	5,6909633E-001	8,1905790E-007	4,4472896E-002	5,0560245E+002	1,1626916E-002	7,3972607E+003	1,4571237E-005	8,6693708E-006	1,6955204E-005	3,0751148E+001	6,5071741E-012	0
0	4,017699813842800E+001	9,3005592E+001	4,9199855E+004	4,0081785E+004	6,3460027E+004	-3,9168770E+001	9,3449503E-003	1,4725727E-007	4,9664670E+002	2,5244617E+003	2,5728516E+003	-7,8870125E+001	3,7902241E-004	1,4731609E-007	7,6443376E-003	5,6856549E-001	4,4860590E-006	4,2693723E-002	5,4862042E+002	1,7031685E-002	3,4473455E+003	1,2216964E-005	9,9528288E-006	1,5757951E-005	3,9168770E+001	3,4292950E-011	0
0	4,060499954223600E+001	7,2877853E+001	6,6694016E+004	4,6893164E+004	8,1529508E+004	-3,5111397E+001	1,0194055E-002	1,2503516E-007	6,5265759E+002	1,7869100E+003	1,9023694E+003	-6,9935600E+001	2,3828665E-004	1,2525783E-007	7,8633977E-003	5,6863528E-001	2,4931462E-006	4,6570946E-002	4,6107324E+002	1,5406516E-002	4,2129966E+003	1,0033610E-005	7,0547212E-006	1,2265497E-005	3,5111397E+001	1,9604601E-011	0
0	4,301599884033200E+001	5,7139320E+001	6,3699789E+004	3,9895227E+004	7,5161773E+004	-3,2058945E+001	9,2624296E-003	1,2323325E-007	2,4557478E+002	-2,2577468E+003	2,2710632E+003	8,3792351E+001	2,7983225E-004	1,2321641E-007	8,7159621E-003	5,6811613E-001	-1,2915982E-005	6,9817476E-002	2,0515010E+002	1,9670345E-002	2,5844971E+003	1,1275712E-005	7,0619863E-006	1,3304635E-005	3,2058945E+001	1,1257521E-010	0
0	4,406399917602500E+001	4,4728069E+001	7,0367320E+004	6,6715281E+004	9,6966430E+004	-4,3473934E+001	1,0379591E-002	1,0704314E-007	1,7171830E+003	-3,4928986E+001	1,7175382E+003	1,1652849E+000	1,8376595E-004	1,0699381E-007	7,2613563E-003	5,6765306E-001	1,1159860E-005	5,3335290E-002	3,5153668E+002	2,5247740E-002	1,5687545E+003	7,4839040E-006	7,0954920E-006	1,0312848E-005	4,3473934E+001	8,1035720E-011	0
0	4,468999862670900E+001	3,5056099E+001	6,6482742E+004	7,2463703E+004	9,8340953E+004	-4,7464783E+001	9,3649318E-003	9,5229218E-008	2,6111721E+003	2,3290249E+003	3,4989395E+003	-4,1731243E+001	3,3317623E-004	9,5222063E-008	7,8903511E-003	5,6729364E-001	2,4442970E-006	6,2652156E-002	2,5475807E+002	3,4017958E-002	8,6413885E+002	6,8744835E-006	7,4929308E-006	1,0168704E-005	4,7464783E+001	1,9286362E-011	0
0	4,700199890136700E+001	2,7431547E+001	5,6063430E+004	1,1076920E+005	1,2414880E+005	-6,3154736E+001	1,1799487E-002	9,5043106E-008	6,1735702E+000	-5,9727632E+003	5,9727666E+003	8,9940781E+001	5,6769012E-004	9,5046424E-008	7,7010035E-003	5,6693405E-001	5,4281654E-006	5,2378230E-002	3,6450070E+002	4,1696906E-002	5,7516486E+002	3,6374302E-006	7,1867739E-006	8,0548507E-006	6,3154736E+001	4,1802322E-011	0
0	4,818099975585900E+001	2,1522045E+001	7,5563422E+004	1,0775709E+005	1,3161088E+005	-5,4960384E+001	1,1012814E-002	8,3677079E-008	3,8071658E+003	2,2953386E+003	4,4455698E+003	-3,1085758E+001	3,7207032E-004	8,3694630E-008	8,0296677E-003	5,6617522E-001	5,7127016E-007	6,8626322E-002	2,1233353E+002	4,6004351E-002	4,7250040E+002	4,3624259E-006	6,2210302E-006	7,5981561E-006	5,4960384E+001	4,5871098E-012	0
0	4,932799911499000E+001	1,6837269E+001	7,8256836E+004	1,4170661E+005	1,6187927E+005	-6,1090523E+001	9,5892940E-003	5,9237319E-008	5,7485186E+003	4,3942842E+003	7,2356895E+003	-3,7395031E+001	4,2874960E-004	5,9254837E-008	7,3527307E-003	5,6589049E-001	8,5653437E-007	6,6704996E-002	2,2474150E+002	5,1115915E-002	3,8272577E+002	2,9863440E-006	5,4076386E-006	6,1774435E-006	6,1090523E+001	6,2978667E-012	0
0	5,173200225830100E+001	1,3196766E+001	7,6673820E+004	1,7227617E+005	1,8856817E+005	-6,6007904E+001	1,0170932E-002	5,3937690E-008	-7,0357751E+002	5,2762671E+003	5,3229707E+003	-9,7595444E+001	2,8707768E-004	5,3931853E-008	6,9656111E-003	5,6570643E-001	5,7452672E-007	7,0004731E-002	2,0405403E+002	5,8430694E-002	2,9289902E+002	2,1563055E-006	4,8449401E-006	5,3031217E-006	6,6007904E+001	4,0019299E-012	0
0	5,235400009155300E+001	1,0334029E+001	1,1603199E+005	2,3596345E+005	2,6294900E+005	-6,3814941E+001	1,0830211E-002	4,1187494E-008	3,4074717E+003	2,2892415E+003	4,1050566E+003	-3,3894386E+001	1,6796745E-004	4,0917204E-008	8,2143163E-003	5,6517309E-001	-6,0932490E-007	6,5268807E-002	2,3474081E+002	5,2559610E-002	3,6198929E+002	1,6781652E-006	3,4127283E-006	3,8030189E-006	6,3814941E+001	5,0051877E-012	0
0	5,287400054931600E+001	8,1042194E+000	1,0369102E+005	2,5987256E+005	2,7979559E+005	-6,8247650E+001	9,7318040E-003	3,4781834E-008	6,6608540E+003	-8,3706914E+003	1,0697450E+004	5,1489498E+001	3,7225563E-004	3,4798539E-008	7,9123462E-003	5,6515193E-001	-7,1714123E-007	7,5569846E-002	1,7510678E+002	6,5191001E-002	2,3530150E+002	1,3245224E-006	3,3195461E-006	3,5740377E-006	6,8247650E+001	5,6742696E-012	0
0	5,321900177002000E+001	6,3413157E+000	8,5987594E+004	3,3997844E+005	3,5068391E+005	-7,5806366E+001	1,0319365E-002	2,9426401E-008	-7,3118247E+003	-5,5984282E+003	9,2089727E+003	1,4255989E+002	2,7060226E-004	2,9384632E-008	7,3599820E-003	5,6522781E-001	2,8631030E-007	7,3822603E-002	1,8349374E+002	6,9384180E-002	2,0772037E+002	6,9920424E-007	2,7645196E-006	2,8515708E-006	7,5806366E+001	2,1072386E-012	0
0	5,365499877929700E+001	4,9697828E+000	1,1738166E+005	4,3807953E+005	4,5353294E+005	-7,5000168E+001	1,0588506E-002	2,3346720E-008	3,0818197E+004	-8,7340547E+003	3,2031938E+004	1,5823035E+001	7,4805052E-004	2,3353271E-008	6,8837069E-003	5,6517833E-001	1,4386100E-006	7,3102087E-002	1,8712874E+002	6,8205282E-002	2,1496313E+002	5,7066683E-007	2,1297826E-006	2,2049114E-006	7,5000168E+001	9,9029691E-012	0
0	5,420700073242200E+001	3,9062500E+000	1,2657802E+005	5,5066025E+005	5,6502100E+005	-7,7054535E+001	1,0364332E-002	1,8343270E-008	1,2368025E+004	-5,0329077E+003	1,3352835E+004	2,2142832E+001	2,4474261E-004	1,8328887E-008	7,5905514E-003	5,6476808E-001	8,5273052E-007	7,3990569E-002	1,8266161E+002	7,0277229E-002	2,0247469E+002	3,9648711E-007	1,7248628E-006	1,7698458E-006	7,7054535E+001	6,4726948E-012	0
0	5,528700256347700E+001	3,0517578E+000	1,6105161E+005	6,4879663E+005	6,6848688E+005	-7,6059174E+001	1,0999464E-002	1,6454271E-008	-4,0605432E+003	-3,6673609E+004	3,6897719E+004	9,6318115E+001	6,0646224E-004	1,6436307E-008	7,3976163E-003	5,6427145E-001	1,7141014E-007	8,0382496E-002	1,5476653E+002	7,5716913E-002	1,7442720E+002	3,6039549E-007	1,4518536E-006	1,4959156E-006	7,6059174E+001	1,2680264E-012	0
0	5,617800140380900E+001	2,3935361E+000	2,1020138E+005	7,8905219E+005	8,1657088E+005	-7,5082993E+001	1,0380730E-002	1,2712589E-008	7,8039858E+003	1,5818501E+004	1,7638797E+004	-6,3740780E+001	2,2518642E-004	1,2766541E-008	7,2876825E-003	5,6407458E-001	-6,4518716E-008	8,4270276E-002	1,4081572E+002	7,8686118E-002	1,6151161E+002	3,1524471E-007	1,1833630E-006	1,2246335E-006	7,5082993E+001	4,7019192E-013	0
0	5,730900192260700E+001	1,8780082E+000	2,4645036E+005	1,0400111E+006	1,0688129E+006	-7,6668587E+001	1,0712656E-002	1,0022948E-008	9,0028740E+003	-1,1524945E+004	1,4624504E+004	5,2004322E+001	1,4691059E-004	1,0045509E-008	7,7418587E-003	5,6430590E-001	2,1607844E-008	8,1486307E-002	1,5060199E+002	7,7153787E-002	1,6799080E+002	2,1573773E-007	9,1040505E-007	9,3561749E-007	7,6668587E+001	1,6728487E-013	0
